 can1  00000000   [8]  00 00 00 00 00 00 00 00
  can1  18004061   [4]  FF FF FD FA
  can1  18004062   [4]  00 00 32 E0
  can1  18004063   [4]  00 00 00 00
  can1  18004064   [4]  00 00 00 00
  can1  18004065   [4]  00 00 00 00
  can1  18004066   [4]  00 00 00 39
  can1  18004067   [4]  00 00 14 AD
  can1  18004068   [4]  7F FF FF FF
  can1  1800406A   [4]  00 01 41 A2
  can1  1800406B   [4]  00 00 00 C8
  can1  1800406C   [4]  00 00 02 06
  can1  1800406D   [4]  00 00 00 00
  can1  18004040   [5]  01 00 00 00 00
  can1  18004041   [5]  01 00 00 00 00
  can1  18004042   [5]  01 00 00 00 15
  can1  18004043   [5]  01 00 00 00 00
  can1  18004044   [5]  01 00 00 00 00
  can1  18004045   [5]  01 00 00 00 00
  can1  18004046   [5]  01 00 00 00 00
  can1  18004047   [5]  01 00 00 00 15
  can1  18004048   [5]  01 00 00 00 00
  can1  18004049   [5]  01 00 00 00 00
  can1  1800404A   [5]  01 00 00 00 00
  can1  1800404B   [5]  01 00 00 00 00
  can1  1800404C   [5]  00 00 00 00 00
  can1  1800404D   [5]  00 00 00 00 15
  can1  18004069   [2]  00 20
  can1  18004070   [1]  00
  can1  18008080   [8]  01 01 00 00 00 00 00 00
  can1  00D5FF0A   [8]  01 01 00 20 00 20 00 23
  can1  038871CE   [8]  01 01 00 24 00 24 00 27
  can1  18009080   [8]  01 01 01 05 00 00 00 00
  can1  18009083   [5]  01 FF FF 4A FA
  can1  18009083   [5]  02 FF FF 42 28
  can1  00C1CACF   [8]  01 01 00 10 00 10 00 13
  can1  00000000   [8]  00 00 00 00 00 00 00 00
  can1  18004061   [4]  FF FF FD EE
  can1  18004062   [4]  00 00 32 E0
  can1  18004063   [4]  00 00 00 00
  can1  18004064   [4]  00 00 00 00
  can1  18004065   [4]  00 00 00 00
  can1  18004066   [4]  00 00 00 39
  can1  18004067   [4]  00 00 14 AD
  can1  18004068   [4]  7F FF FF FF
  can1  1800406A   [4]  00 01 41 A2
  can1  1800406B   [4]  00 00 00 C8
  can1  1800406C   [4]  00 00 02 12
  can1  1800406D   [4]  00 00 00 00
  can1  18004040   [5]  01 00 00 00 15
  can1  18004041   [5]  01 00 00 00 00
  can1  18004042   [5]  01 00 00 00 15
  can1  18004043   [5]  01 00 00 00 15
  can1  18004044   [5]  01 00 00 00 00
  can1  18004045   [5]  01 00 00 00 00
  can1  18004046   [5]  01 00 00 00 00
  can1  18004047   [5]  01 00 00 00 00
  can1  18004048   [5]  01 00 00 00 00
  can1  18004049   [5]  01 00 00 00 00
  can1  1800404A   [5]  01 00 00 00 00
  can1  1800404B   [5]  01 00 00 00 00
  can1  1800404C   [5]  00 00 00 00 00
  can1  1800404D   [5]  00 00 00 00 00
  can1  18004069   [2]  00 20
  can1  18004070   [1]  00
  can1  00D5FF0A   [8]  01 01 00 20 00 20 00 23
  can1  038871CE   [8]  01 01 00 24 00 24 00 27
  can1  18008080   [8]  01 01 00 00 00 00 00 00
  can1  18009080   [8]  01 01 01 05 00 00 00 00
  can1  18009083   [5]  01 FF FF 4B C2
  can1  18009083   [5]  02 FF FF 42 28
  can1  00C1CACF   [8]  01 01 00 10 00 10 00 13
  can1  00000000   [8]  00 00 00 00 00 00 00 00
  can1  18004061   [4]  FF FF FE 12
  can1  18004062   [4]  00 00 32 E0
  can1  18004063   [4]  00 00 00 00
  can1  18004064   [4]  00 00 00 00
  can1  18004065   [4]  00 00 00 00
  can1  18004066   [4]  00 00 00 39
  can1  18004067   [4]  00 00 14 AD
  can1  18004068   [4]  7F FF FF FF
  can1  1800406A   [4]  00 01 41 A2
  can1  1800406B   [4]  00 00 00 CD
  can1  1800406C   [4]  00 00 01 D7
  can1  1800406D   [4]  00 00 00 00
  can1  18004040   [5]  01 00 00 00 15
  can1  18004041   [5]  01 00 00 00 00
  can1  18004042   [5]  01 00 00 00 2A
  can1  18004043   [5]  01 00 00 00 00
  can1  18004044   [5]  01 00 00 00 00
  can1  18004045   [5]  01 00 00 00 15
  can1  18004046   [5]  01 00 00 00 00
  can1  18004047   [5]  01 00 00 00 00
  can1  18004048   [5]  01 00 00 00 00
  can1  18004049   [5]  01 00 00 00 00
  can1  1800404A   [5]  01 00 00 00 00
  can1  1800404B   [5]  01 00 00 00 00
  can1  1800404C   [5]  00 00 00 00 00
  can1  1800404D   [5]  00 00 00 00 00
  can1  18004069   [2]  00 20
  can1  18004070   [1]  00
